time	V(vout)	V(vout2)
0.000000000000000e+000	-9.998000e-005	-1.019592e-002
1.000000000000000e-006	-9.998000e-005	-1.019592e-002
1.000100000000000e-006	-9.997949e-005	-1.019592e-002
1.000125000000000e-006	-9.997932e-005	-1.019592e-002
1.000175000000000e-006	-9.997878e-005	-1.019592e-002
1.000275000000000e-006	-9.997721e-005	-1.019592e-002
1.000300000000000e-006	-9.997666e-005	-1.019592e-002
1.000318750000000e-006	-9.997615e-005	-1.019592e-002
1.000343750000000e-006	-9.997534e-005	-1.019591e-002
1.000393750000000e-006	-9.997328e-005	-1.019590e-002
1.000493750000000e-006	-9.996689e-005	-1.019588e-002
1.000693750000000e-006	-9.994352e-005	-1.019579e-002
1.001000000000000e-006	-9.989051e-005	-1.019562e-002
1.003235624999998e-006	-9.751988e-005	-1.019073e-002
1.005471249999997e-006	-9.178288e-005	-1.017961e-002
1.007706874999995e-006	-8.267950e-005	-1.016224e-002
1.009942499999993e-006	-7.020975e-005	-1.013864e-002
1.012178124999991e-006	-5.437362e-005	-1.010880e-002
1.014413749999989e-006	-3.517112e-005	-1.007272e-002
1.016649374999987e-006	-1.260225e-005	-1.003041e-002
1.032329374999974e-006	2.318027e-004	-9.566677e-003
1.061746933401430e-006	1.063204e-003	-7.965029e-003
1.109257141284118e-006	3.502640e-003	-3.192737e-003
1.204277557049492e-006	1.158552e-002	1.276523e-002
1.311959168469250e-006	2.400000e-002	3.736873e-002
1.325959168469247e-006	2.618835e-002	4.171792e-002
1.341959168469243e-006	2.882868e-002	4.696754e-002
1.373959168469235e-006	3.455170e-002	5.835294e-002
1.440959168469219e-006	4.745362e-002	8.403274e-002
1.449536430116474e-006	4.928381e-002	8.767779e-002
1.458113691763728e-006	5.114683e-002	9.138864e-002
1.466690953410983e-006	5.304271e-002	9.516529e-002
1.475268215058237e-006	5.497143e-002	9.900774e-002
1.483845476705491e-006	5.693300e-002	1.029160e-001
1.492422738352746e-006	5.892742e-002	1.068900e-001
1.501000000000000e-006	6.095469e-002	1.109299e-001
1.501750000000000e-006	6.113357e-002	1.112864e-001
1.501775000000000e-006	6.113954e-002	1.112983e-001
1.501825000000000e-006	6.115147e-002	1.113221e-001
1.501826562500000e-006	6.115185e-002	1.113228e-001
1.502000000000000e-006	6.119325e-002	1.114053e-001
1.519278945312420e-006	6.540421e-002	1.196048e-001
1.536557890624841e-006	6.977786e-002	1.277633e-001
1.553836835937261e-006	7.431421e-002	1.358810e-001
1.571115781249681e-006	7.901326e-002	1.439577e-001
1.588394726562101e-006	8.387500e-002	1.519936e-001
1.605673671874521e-006	8.889944e-002	1.599885e-001
1.622952617186941e-006	9.408657e-002	1.679426e-001
1.758080000001117e-006	1.366704e-001	2.296095e-001
1.843084296889525e-006	1.680582e-001	2.671649e-001
1.912846718814803e-006	1.956826e-001	2.974578e-001
2.000000000000000e-006	2.330207e-001	3.344743e-001
2.000125000000000e-006	2.330765e-001	3.345267e-001
2.000175000000000e-006	2.330989e-001	3.345477e-001
2.000275000000000e-006	2.331435e-001	3.345896e-001
2.000278125000000e-006	2.331449e-001	3.345909e-001
2.001000000000000e-006	2.334674e-001	3.348939e-001
2.043183962053610e-006	2.528821e-001	3.538887e-001
2.085367924107221e-006	2.728886e-001	3.742462e-001
2.127551886160831e-006	2.934868e-001	3.959664e-001
2.169735848214441e-006	3.146767e-001	4.190492e-001
2.211919810268051e-006	3.364583e-001	4.434946e-001
2.254103772321662e-006	3.588316e-001	4.693027e-001
2.296287734375272e-006	3.817967e-001	4.964734e-001
2.325532343750233e-006	3.982026e-001	5.164377e-001
2.354776953125194e-006	4.148973e-001	5.370797e-001
2.384021562500156e-006	4.318806e-001	5.583992e-001
2.413266171875117e-006	4.491526e-001	5.803962e-001
2.442510781250078e-006	4.667133e-001	6.030709e-001
2.471755390625039e-006	4.845627e-001	6.264231e-001
2.501000000000000e-006	5.027007e-001	6.504529e-001
2.501750000000001e-006	5.031696e-001	6.510779e-001
2.501775000000001e-006	5.031852e-001	6.510987e-001
2.501825000000000e-006	5.032164e-001	6.511404e-001
2.501826562500001e-006	5.032175e-001	6.511417e-001
2.502000000000000e-006	5.033259e-001	6.512863e-001
2.573142857142857e-006	5.488409e-001	7.099616e-001
2.644285714285714e-006	5.958019e-001	7.674372e-001
2.715428571428571e-006	6.442087e-001	8.237130e-001
2.786571428571429e-006	6.940615e-001	8.787890e-001
2.857714285714286e-006	7.453602e-001	9.326652e-001
2.928857142857143e-006	7.981048e-001	9.853417e-001
3.000000000000000e-006	8.522953e-001	1.036818e+000
3.000125000000000e-006	8.523917e-001	1.036908e+000
3.000175000000000e-006	8.524302e-001	1.036943e+000
3.000275000000000e-006	8.525073e-001	1.037015e+000
3.000278125000000e-006	8.525097e-001	1.037017e+000
3.001000000000000e-006	8.530664e-001	1.037532e+000
3.072428571428571e-006	9.089840e-001	1.090791e+000
3.143857142857143e-006	9.660454e-001	1.147557e+000
3.215285714285714e-006	1.024251e+000	1.207830e+000
3.286714285714286e-006	1.083600e+000	1.271609e+000
3.358142857142857e-006	1.144092e+000	1.338896e+000
3.429571428571429e-006	1.205729e+000	1.409689e+000
3.501000000000000e-006	1.268510e+000	1.483989e+000
3.501750000000000e-006	1.269174e+000	1.484786e+000
3.501775000000000e-006	1.269196e+000	1.484813e+000
3.501825000000000e-006	1.269240e+000	1.484866e+000
3.501826562500000e-006	1.269241e+000	1.484867e+000
3.502000000000000e-006	1.269395e+000	1.485052e+000
3.573142857142857e-006	1.333058e+000	1.559671e+000
3.644285714285714e-006	1.397529e+000	1.632455e+000
3.715428571428572e-006	1.462809e+000	1.703402e+000
3.786571428571429e-006	1.528898e+000	1.772513e+000
3.857714285714286e-006	1.595795e+000	1.839788e+000
3.928857142857143e-006	1.663501e+000	1.905227e+000
4.000000000000000e-006	1.732016e+000	1.968829e+000
4.000125000000000e-006	1.732137e+000	1.968939e+000
4.000175000000000e-006	1.732185e+000	1.968983e+000
4.000275000000000e-006	1.732282e+000	1.969071e+000
4.000300000000001e-006	1.732306e+000	1.969093e+000
4.001000000000000e-006	1.732983e+000	1.969709e+000
4.072428571428571e-006	1.802564e+000	2.034419e+000
4.143857142857143e-006	1.872656e+000	2.102015e+000
4.215285714285714e-006	1.943260e+000	2.172497e+000
4.286714285714286e-006	2.014374e+000	2.245865e+000
4.358142857142857e-006	2.085999e+000	2.322119e+000
4.429571428571429e-006	2.158135e+000	2.401259e+000
4.501000000000000e-006	2.230783e+000	2.483285e+000
4.501750000000000e-006	2.231547e+000	2.484159e+000
4.501775000000000e-006	2.231572e+000	2.484189e+000
4.501825000000000e-006	2.231623e+000	2.484247e+000
4.501826562500000e-006	2.231625e+000	2.484249e+000
4.502000000000000e-006	2.231802e+000	2.484451e+000
4.573142857142857e-006	2.304599e+000	2.566074e+000
4.644285714285715e-006	2.377610e+000	2.645281e+000
4.715428571428572e-006	2.450836e+000	2.722071e+000
4.786571428571429e-006	2.524276e+000	2.796446e+000
4.857714285714285e-006	2.597930e+000	2.868404e+000
4.928857142857142e-006	2.671798e+000	2.937946e+000
5.000000000000000e-006	2.745880e+000	3.005072e+000
5.000125000000000e-006	2.746010e+000	3.005188e+000
5.000175000000000e-006	2.746062e+000	3.005234e+000
5.000275000000000e-006	2.746166e+000	3.005327e+000
5.000300000000000e-006	2.746192e+000	3.005350e+000
5.001000000000000e-006	2.746921e+000	3.005997e+000
5.072428571428572e-006	2.821437e+000	3.073608e+000
5.143857142857143e-006	2.895899e+000	3.143560e+000
5.215285714285715e-006	2.970306e+000	3.215854e+000
5.286714285714286e-006	3.044659e+000	3.290488e+000
5.358142857142858e-006	3.118958e+000	3.367463e+000
5.429571428571429e-006	3.193202e+000	3.446778e+000
5.501000000000000e-006	3.267392e+000	3.528435e+000
5.501750000000000e-006	3.268169e+000	3.529303e+000
5.501775000000000e-006	3.268195e+000	3.529332e+000
5.501825000000000e-006	3.268247e+000	3.529390e+000
5.501826562499999e-006	3.268249e+000	3.529392e+000
5.502000000000000e-006	3.268429e+000	3.529593e+000
5.573142857142857e-006	3.342160e+000	3.610270e+000
5.644285714285714e-006	3.415600e+000	3.688049e+000
5.715428571428572e-006	3.488748e+000	3.762931e+000
5.786571428571429e-006	3.561604e+000	3.834914e+000
5.857714285714286e-006	3.634168e+000	3.904001e+000
5.928857142857143e-006	3.706441e+000	3.970189e+000
6.000000000000000e-006	3.778422e+000	4.033480e+000
6.000125000000000e-006	3.778548e+000	4.033588e+000
6.000175000000001e-006	3.778598e+000	4.033631e+000
6.000275000000001e-006	3.778699e+000	4.033718e+000
6.000300000000001e-006	3.778724e+000	4.033740e+000
6.001000000000000e-006	3.779430e+000	4.034347e+000
6.072428571428571e-006	3.851288e+000	4.097587e+000
6.143857142857143e-006	3.922634e+000	4.162739e+000
6.215285714285714e-006	3.993467e+000	4.229802e+000
6.286714285714285e-006	4.063788e+000	4.298776e+000
6.358142857142856e-006	4.133596e+000	4.369661e+000
6.429571428571428e-006	4.202892e+000	4.442458e+000
6.500999999999999e-006	4.271676e+000	4.517166e+000
6.501749999999999e-006	4.272395e+000	4.517958e+000
6.501774999999999e-006	4.272418e+000	4.517985e+000
6.501824999999999e-006	4.272466e+000	4.518038e+000
6.501826562499999e-006	4.272468e+000	4.518039e+000
6.502000000000000e-006	4.272634e+000	4.518223e+000
6.573142857142857e-006	4.340502e+000	4.591532e+000
6.644285714285714e-006	4.407691e+000	4.661586e+000
6.715428571428571e-006	4.474200e+000	4.728384e+000
6.786571428571428e-006	4.540029e+000	4.791927e+000
6.857714285714285e-006	4.605179e+000	4.852214e+000
6.928857142857142e-006	4.669649e+000	4.909245e+000
6.999999999999999e-006	4.733439e+000	4.963020e+000
7.000124999999999e-006	4.733551e+000	4.963112e+000
7.000174999999999e-006	4.733595e+000	4.963148e+000
7.000275000000000e-006	4.733685e+000	4.963222e+000
7.000278125000000e-006	4.733687e+000	4.963223e+000
7.001000000000000e-006	4.734330e+000	4.963751e+000
7.072428571428571e-006	4.797549e+000	5.017068e+000
7.143857142857143e-006	4.859928e+000	5.071996e+000
7.215285714285714e-006	4.921466e+000	5.128537e+000
7.286714285714286e-006	4.982165e+000	5.186689e+000
7.358142857142857e-006	5.042023e+000	5.246454e+000
7.429571428571429e-006	5.101041e+000	5.307831e+000
7.501000000000000e-006	5.159219e+000	5.370820e+000
7.501750000000000e-006	5.159824e+000	5.371488e+000
7.501775000000000e-006	5.159845e+000	5.371511e+000
7.501825000000000e-006	5.159885e+000	5.371555e+000
7.501826562500000e-006	5.159886e+000	5.371556e+000
7.502000000000000e-006	5.160027e+000	5.371711e+000
7.573142857142858e-006	5.216994e+000	5.433058e+000
7.644285714285715e-006	5.273026e+000	5.490925e+000
7.715428571428571e-006	5.328121e+000	5.545311e+000
7.786571428571429e-006	5.382281e+000	5.596218e+000
7.857714285714285e-006	5.435504e+000	5.643645e+000
7.928857142857143e-006	5.487791e+000	5.687592e+000
8.000000000000000e-006	5.539142e+000	5.728058e+000
8.000125000000000e-006	5.539231e+000	5.728126e+000
8.000175000000000e-006	5.539267e+000	5.728153e+000
8.000275000000000e-006	5.539338e+000	5.728208e+000
8.000300000000000e-006	5.539356e+000	5.728221e+000
8.001000000000000e-006	5.539855e+000	5.728601e+000
8.072428571428571e-006	5.590325e+000	5.768321e+000
8.143857142857144e-006	5.639760e+000	5.809495e+000
8.215285714285715e-006	5.688160e+000	5.852122e+000
8.286714285714286e-006	5.735525e+000	5.896203e+000
8.358142857142857e-006	5.781856e+000	5.941736e+000
8.429571428571429e-006	5.827151e+000	5.988723e+000
8.501000000000000e-006	5.871411e+000	6.037163e+000
8.501749999999999e-006	5.871870e+000	6.037679e+000
8.501774999999999e-006	5.871885e+000	6.037696e+000
8.501824999999999e-006	5.871916e+000	6.037730e+000
8.501826562499999e-006	5.871917e+000	6.037731e+000
8.502000000000001e-006	5.872023e+000	6.037850e+000
8.573142857142857e-006	5.914946e+000	6.084548e+000
8.644285714285715e-006	5.956807e+000	6.127672e+000
8.715428571428572e-006	5.997606e+000	6.167220e+000
8.786571428571430e-006	6.037343e+000	6.203193e+000
8.857714285714286e-006	6.076018e+000	6.235591e+000
8.928857142857144e-006	6.113631e+000	6.264415e+000
9.000000000000000e-006	6.150182e+000	6.289663e+000
9.000125000000001e-006	6.150245e+000	6.289704e+000
9.000175000000001e-006	6.150270e+000	6.289721e+000
9.000275000000001e-006	6.150321e+000	6.289753e+000
9.000300000000001e-006	6.150334e+000	6.289762e+000
9.000999999999999e-006	6.150687e+000	6.289991e+000
9.072428571428570e-006	6.186180e+000	6.314349e+000
9.143857142857143e-006	6.220572e+000	6.340125e+000
9.215285714285714e-006	6.253864e+000	6.367317e+000
9.286714285714285e-006	6.286056e+000	6.395928e+000
9.358142857142857e-006	6.317147e+000	6.425956e+000
9.429571428571428e-006	6.347138e+000	6.457401e+000
9.500999999999999e-006	6.376029e+000	6.490264e+000
9.501750000000001e-006	6.376326e+000	6.490616e+000
9.501775000000001e-006	6.376336e+000	6.490628e+000
9.501825000000001e-006	6.376356e+000	6.490652e+000
9.501826562500002e-006	6.376356e+000	6.490652e+000
9.502000000000000e-006	6.376425e+000	6.490734e+000
9.570089776769421e-006	6.402822e+000	6.520622e+000
9.638179553538843e-006	6.428243e+000	6.547260e+000
9.706269330308264e-006	6.452688e+000	6.570647e+000
9.774359107077687e-006	6.476157e+000	6.590784e+000
9.842448883847109e-006	6.498650e+000	6.607669e+000
9.910538660616530e-006	6.520166e+000	6.621304e+000
9.978628437385952e-006	6.540706e+000	6.631689e+000
9.979628437385954e-006	6.541000e+000	6.631817e+000
9.999999999999999e-006	6.546931e+000	6.634243e+000
1.000012500000000e-005	6.546967e+000	6.634257e+000
1.000017500000000e-005	6.546981e+000	6.634263e+000
1.000027500000000e-005	6.547010e+000	6.634274e+000
1.000027812500000e-005	6.547011e+000	6.634274e+000
1.000100000000000e-005	6.547219e+000	6.634355e+000
1.007242857142857e-005	6.567256e+000	6.643285e+000
1.014385714285714e-005	6.586239e+000	6.653701e+000
1.021528571428571e-005	6.604169e+000	6.665602e+000
1.028671428571429e-005	6.621045e+000	6.678989e+000
1.035814285714286e-005	6.636867e+000	6.693862e+000
1.042957142857143e-005	6.651636e+000	6.710221e+000
1.050100000000000e-005	6.665351e+000	6.728065e+000
1.050175000000000e-005	6.665490e+000	6.728260e+000
1.050177500000000e-005	6.665494e+000	6.728266e+000
1.050182500000000e-005	6.665504e+000	6.728279e+000
1.050182656250000e-005	6.665504e+000	6.728280e+000
1.050200000000000e-005	6.665535e+000	6.728324e+000
1.056069238839925e-005	6.675924e+000	6.742014e+000
1.061938477679849e-005	6.685648e+000	6.753363e+000
1.067807716519774e-005	6.694709e+000	6.762373e+000
1.073676955359698e-005	6.703106e+000	6.769043e+000
1.079546194199623e-005	6.710839e+000	6.773373e+000
1.085415433039548e-005	6.717909e+000	6.775364e+000
1.091284671879472e-005	6.724315e+000	6.775015e+000
1.092529718753834e-005	6.725595e+000	6.774668e+000
1.093774765628195e-005	6.726842e+000	6.774206e+000
1.095019812502556e-005	6.728056e+000	6.773630e+000
1.096264859376917e-005	6.729237e+000	6.772940e+000
1.097509906251278e-005	6.730385e+000	6.772134e+000
1.098754953125639e-005	6.731500e+000	6.771215e+000
1.100000000000000e-005	6.732583e+000	6.770181e+000
1.100012500000000e-005	6.732593e+000	6.770170e+000
1.100017500000000e-005	6.732597e+000	6.770165e+000
1.100027500000000e-005	6.732606e+000	6.770157e+000
1.100030000000000e-005	6.732608e+000	6.770155e+000
1.100100000000000e-005	6.732668e+000	6.770094e+000
1.103726419642850e-005	6.735533e+000	6.767414e+000
1.107352839285700e-005	6.738192e+000	6.765099e+000
1.110979258928551e-005	6.740645e+000	6.763151e+000
1.114605678571401e-005	6.742893e+000	6.761568e+000
1.118232098214251e-005	6.744935e+000	6.760352e+000
1.121858517857101e-005	6.746771e+000	6.759501e+000
1.125484937499951e-005	6.748402e+000	6.759016e+000
1.125884937499952e-005	6.748553e+000	6.759014e+000
1.128284937499958e-005	6.749383e+000	6.759134e+000
1.131401374999964e-005	6.750335e+000	6.759516e+000
1.134517812499970e-005	6.751114e+000	6.760204e+000
1.137634249999976e-005	6.751720e+000	6.761199e+000
1.140750687499982e-005	6.752153e+000	6.762500e+000
1.143867124999988e-005	6.752412e+000	6.764107e+000
1.146983562499994e-005	6.752498e+000	6.766021e+000
1.150100000000000e-005	6.752411e+000	6.768242e+000
1.150175000000000e-005	6.752407e+000	6.768299e+000
1.150177500000000e-005	6.752407e+000	6.768301e+000
1.150182500000000e-005	6.752407e+000	6.768305e+000
1.150182656250000e-005	6.752407e+000	6.768305e+000
1.150200000000000e-005	6.752406e+000	6.768318e+000
1.151927894531244e-005	6.752274e+000	6.769503e+000
1.153655789062489e-005	6.752079e+000	6.770433e+000
1.155383683593733e-005	6.751820e+000	6.771109e+000
1.157111578124978e-005	6.751497e+000	6.771530e+000
1.158839472656222e-005	6.751110e+000	6.771698e+000
1.160567367187467e-005	6.750660e+000	6.771611e+000
1.162295261718711e-005	6.750145e+000	6.771270e+000
1.175808000000077e-005	6.745326e+000	6.765420e+000
1.179264000000066e-005	6.743512e+000	6.761606e+000
1.182720000000055e-005	6.741512e+000	6.757048e+000
1.186176000000044e-005	6.739327e+000	6.751746e+000
1.189632000000033e-005	6.736956e+000	6.745701e+000
1.193088000000022e-005	6.734398e+000	6.738912e+000
1.196544000000011e-005	6.731656e+000	6.731380e+000
1.200000000000000e-005	6.728727e+000	6.723104e+000
1.200012500000000e-005	6.728716e+000	6.723073e+000
1.200017500000000e-005	6.728712e+000	6.723060e+000
1.200027500000000e-005	6.728703e+000	6.723035e+000
1.200027812500000e-005	6.728703e+000	6.723034e+000
1.200100000000000e-005	6.728639e+000	6.722852e+000
1.207242857142857e-005	6.721892e+000	6.705932e+000
1.214385714285714e-005	6.714415e+000	6.690850e+000
1.221528571428571e-005	6.706206e+000	6.677608e+000
1.228671428571429e-005	6.697267e+000	6.666204e+000
1.235814285714286e-005	6.687596e+000	6.656638e+000
1.242957142857143e-005	6.677194e+000	6.648912e+000
1.250100000000000e-005	6.666061e+000	6.643024e+000
1.250175000000000e-005	6.665941e+000	6.642972e+000
1.250177500000000e-005	6.665936e+000	6.642971e+000
1.250182500000000e-005	6.665928e+000	6.642967e+000
1.250182656250000e-005	6.665928e+000	6.642967e+000
1.250200000000000e-005	6.665900e+000	6.642955e+000
1.257314285714286e-005	6.654047e+000	6.636038e+000
1.264428571428571e-005	6.641582e+000	6.626069e+000
1.271542857142857e-005	6.628505e+000	6.613047e+000
1.278657142857143e-005	6.614815e+000	6.596973e+000
1.285771428571429e-005	6.600514e+000	6.577847e+000
1.292885714285714e-005	6.585601e+000	6.555668e+000
1.300000000000000e-005	6.570076e+000	6.530436e+000
1.300012500000000e-005	6.570048e+000	6.530389e+000
1.300017500000000e-005	6.570037e+000	6.530370e+000
1.300027500000000e-005	6.570015e+000	6.530332e+000
1.300027812500000e-005	6.570014e+000	6.530331e+000
1.300100000000000e-005	6.569854e+000	6.530059e+000
1.307242857142857e-005	6.553618e+000	6.504377e+000
1.314385714285714e-005	6.536872e+000	6.480761e+000
1.321528571428571e-005	6.519618e+000	6.459211e+000
1.328671428571429e-005	6.501854e+000	6.439727e+000
1.335814285714286e-005	6.483581e+000	6.422308e+000
1.342957142857143e-005	6.464799e+000	6.406956e+000
1.350100000000000e-005	6.445507e+000	6.393670e+000
1.350175000000000e-005	6.445302e+000	6.393541e+000
1.350177500000000e-005	6.445295e+000	6.393537e+000
1.350182500000000e-005	6.445282e+000	6.393528e+000
1.350182656250000e-005	6.445282e+000	6.393528e+000
1.350200000000000e-005	6.445234e+000	6.393498e+000
1.357314285714286e-005	6.425503e+000	6.379465e+000
1.364428571428572e-005	6.405383e+000	6.362605e+000
1.371542857142857e-005	6.384876e+000	6.342918e+000
1.378657142857143e-005	6.363979e+000	6.320405e+000
1.385771428571429e-005	6.342695e+000	6.295065e+000
1.392885714285714e-005	6.321022e+000	6.266898e+000
1.400000000000000e-005	6.298960e+000	6.235905e+000
1.400012500000000e-005	6.298921e+000	6.235848e+000
1.400017500000000e-005	6.298906e+000	6.235825e+000
1.400027500000000e-005	6.298874e+000	6.235779e+000
1.400030000000000e-005	6.298867e+000	6.235768e+000
1.400100000000000e-005	6.298648e+000	6.235449e+000
1.407242857142857e-005	6.276103e+000	6.204227e+000
1.414385714285714e-005	6.253277e+000	6.175302e+000
1.421528571428571e-005	6.230168e+000	6.148672e+000
1.428671428571428e-005	6.206776e+000	6.124338e+000
1.435814285714286e-005	6.183103e+000	6.102299e+000
1.442957142857143e-005	6.159147e+000	6.082557e+000
1.450100000000000e-005	6.134909e+000	6.065111e+000
1.450175000000000e-005	6.134654e+000	6.064940e+000
1.450177500000000e-005	6.134645e+000	6.064934e+000
1.450182500000000e-005	6.134628e+000	6.064923e+000
1.450182656250000e-005	6.134627e+000	6.064922e+000
1.450200000000000e-005	6.134568e+000	6.064883e+000
