time	V(vout)	V(n003)
0.000000000000000e+000	5.005000e-008	0.000000e+000
1.748046825561858e-010	5.005000e-008	8.740234e-001
1.787109324457095e-010	5.005000e-008	8.935547e-001
1.802127057159941e-010	5.005000e-008	9.010635e-001
1.814439216667788e-010	5.005000e-008	9.072196e-001
1.823859920822980e-010	5.005000e-008	9.119300e-001
1.834645044189804e-010	5.005001e-008	9.173225e-001
1.845324089826705e-010	5.005003e-008	9.226620e-001
1.854774512758999e-010	5.005005e-008	9.273872e-001
1.863328020517022e-010	5.005010e-008	9.316640e-001
1.871373899848015e-010	5.005018e-008	9.356869e-001
1.879935839947905e-010	5.005031e-008	9.399679e-001
1.887745014014977e-010	5.005054e-008	9.438725e-001
1.895911782690957e-010	5.005094e-008	9.479559e-001
1.904117459415924e-010	5.005161e-008	9.520587e-001
1.913729121933977e-010	5.005296e-008	9.568645e-001
1.926456945063839e-010	5.005587e-008	9.632285e-001
1.942106446666873e-010	5.006146e-008	9.710532e-001
1.961017442510596e-010	5.007130e-008	9.805087e-001
1.981652372968169e-010	5.008653e-008	9.908262e-001
2.014230329920849e-010	5.012132e-008	1.007115e+000
3.155054568503585e-010	5.945439e-008	1.577527e+000
4.295878807086321e-010	8.128981e-008	2.147939e+000
5.436703045669057e-010	1.156276e-007	2.718351e+000
6.577527284251793e-010	1.624677e-007	3.288764e+000
7.718351522834530e-010	2.218102e-007	3.859176e+000
8.859175761417266e-010	2.936550e-007	4.429588e+000
1.000000000000000e-009	3.780022e-007	5.000000e+000
1.116549901931643e-009	4.815348e-007	5.000000e+000
1.249749789853521e-009	6.204473e-007	5.000000e+000
1.516149565697277e-009	9.647883e-007	5.000000e+000
2.048949117384789e-009	1.919508e-006	5.000000e+000
3.114548220759812e-009	4.892885e-006	5.000000e+000
5.245746427509859e-009	1.509369e-005	5.000000e+000
9.508142841009951e-009	5.249781e-005	5.000000e+000
1.803293566801014e-008	1.952067e-004	5.000000e+000
3.508252132201051e-008	7.513465e-004	5.000000e+000
6.918169263001126e-008	2.939406e-003	5.000000e+000
1.373800352460128e-007	1.093042e-002	5.000000e+000
2.350362852460128e-007	2.938210e-002	5.000000e+000
3.326925352460128e-007	5.620086e-002	5.000000e+000
4.303487852460128e-007	9.188989e-002	5.000000e+000
5.280050352460128e-007	1.362438e-001	5.000000e+000
6.256612852460128e-007	1.890532e-001	5.000000e+000
7.233175352460129e-007	2.501044e-001	5.000000e+000
8.209737852460129e-007	3.191804e-001	5.000000e+000
9.186300352460130e-007	3.960607e-001	5.000000e+000
1.016286285246013e-006	4.805217e-001	5.000000e+000
1.113942535246013e-006	5.723369e-001	5.000000e+000
1.211598785246013e-006	6.712774e-001	5.000000e+000
1.309255035246013e-006	7.771118e-001	5.000000e+000
1.406911285246013e-006	8.896067e-001	5.000000e+000
1.504567535246013e-006	1.008527e+000	5.000000e+000
1.602223785246013e-006	1.133636e+000	5.000000e+000
1.797536285246013e-006	1.401469e+000	5.000000e+000
1.992848785246013e-006	1.691190e+000	5.000000e+000
2.188161285246013e-006	2.000877e+000	5.000000e+000
2.481130035246012e-006	2.498639e+000	5.000000e+000
2.774098785246012e-006	3.030541e+000	5.000000e+000
3.011263963817440e-006	3.489505e+000	5.000000e+000
3.248429142388869e-006	3.955502e+000	5.000000e+000
3.485594320960298e-006	4.428530e+000	5.000000e+000
3.722759499531727e-006	4.908590e+000	5.000000e+000
3.959924678103155e-006	5.395681e+000	5.000000e+000
4.197089856674584e-006	5.889805e+000	5.000000e+000
4.434255035246012e-006	6.390960e+000	5.000000e+000
4.515218601639439e-006	6.559243e+000	5.000000e+000
4.596182168032866e-006	6.726805e+000	5.000000e+000
4.677145734426293e-006	6.893647e+000	5.000000e+000
4.758109300819719e-006	7.059767e+000	5.000000e+000
4.839072867213146e-006	7.225168e+000	5.000000e+000
4.920036433606574e-006	7.389847e+000	5.000000e+000
5.001000000000000e-006	7.553806e+000	5.000000e+000
5.001750000000823e-006	7.555318e+000	1.250000e+000
5.001775000000741e-006	7.555368e+000	1.125000e+000
5.001825000000577e-006	7.555469e+000	8.750000e-001
5.001826562500572e-006	7.555472e+000	8.671875e-001
5.002000000000001e-006	7.555822e+000	0.000000e+000
5.186689659541067e-006	7.905801e+000	0.000000e+000
5.371379319082133e-006	8.218023e+000	0.000000e+000
5.556068978623199e-006	8.492488e+000	0.000000e+000
5.740758638164265e-006	8.729194e+000	0.000000e+000
5.925448297705331e-006	8.928143e+000	0.000000e+000
6.110137957246397e-006	9.089334e+000	0.000000e+000
6.294827616787463e-006	9.212768e+000	0.000000e+000
6.490140116787463e-006	9.306084e+000	0.000000e+000
6.587796366787463e-006	9.338253e+000	0.000000e+000
6.685452616787464e-006	9.360970e+000	0.000000e+000
6.783108866787464e-006	9.374396e+000	0.000000e+000
6.880765116787464e-006	9.378697e+000	0.000000e+000
6.978421366787464e-006	9.374046e+000	0.000000e+000
7.076077616787465e-006	9.360622e+000	0.000000e+000
7.173733866787465e-006	9.338606e+000	0.000000e+000
7.271390116787465e-006	9.308186e+000	0.000000e+000
7.466702616787466e-006	9.222900e+000	0.000000e+000
7.662015116787466e-006	9.106345e+000	0.000000e+000
7.857327616787465e-006	8.960155e+000	0.000000e+000
8.150296366787463e-006	8.688997e+000	0.000000e+000
8.443265116787461e-006	8.360798e+000	0.000000e+000
8.638577616787460e-006	8.113260e+000	0.000000e+000
8.736233866787460e-006	7.981542e+000	0.000000e+000
8.833890116787459e-006	7.844824e+000	0.000000e+000
8.931546366787458e-006	7.703523e+000	0.000000e+000
9.012499995648667e-006	7.583604e+000	0.000000e+000
9.019507109069039e-006	7.573070e+000	0.000000e+000
9.020384036416730e-006	7.571743e+000	0.000000e+000
9.020391097527107e-006	7.571732e+000	0.000000e+000
9.020395819873368e-006	7.571724e+000	0.000000e+000
9.020397047724771e-006	7.571722e+000	0.000000e+000
9.020398275576175e-006	7.571721e+000	0.000000e+000
9.020399503427578e-006	7.571719e+000	0.000000e+000
9.020400731278981e-006	7.571717e+000	0.000000e+000
9.020401959130384e-006	7.571715e+000	0.000000e+000
9.020403186981787e-006	7.571713e+000	0.000000e+000
9.020404414833190e-006	7.571712e+000	0.000000e+000
9.160346641285592e-006	7.363469e+000	0.000000e+000
9.300288867737994e-006	7.160489e+000	0.000000e+000
9.440231094190395e-006	6.962770e+000	0.000000e+000
9.580173320642797e-006	6.770313e+000	0.000000e+000
9.720115547095197e-006	6.583118e+000	0.000000e+000
9.860057773547599e-006	6.401184e+000	0.000000e+000
1.000000000000000e-005	6.224512e+000	0.000000e+000
1.000002603002396e-005	6.224479e+000	1.301501e-001
1.000005206004793e-005	6.224447e+000	2.603002e-001
1.000007809007189e-005	6.224414e+000	3.904504e-001
1.000010412009585e-005	6.224382e+000	5.206005e-001
1.000013015011982e-005	6.224350e+000	6.507506e-001
1.000015618014378e-005	6.224317e+000	7.809007e-001
1.000018221016774e-005	6.224285e+000	9.110509e-001
1.000018266498914e-005	6.224284e+000	9.133250e-001
1.000018311981054e-005	6.224284e+000	9.155991e-001
1.000018357463193e-005	6.224283e+000	9.178732e-001
1.000018402945333e-005	6.224282e+000	9.201473e-001
1.000018448427473e-005	6.224282e+000	9.224214e-001
1.000018493909613e-005	6.224281e+000	9.246955e-001
1.000018539391752e-005	6.224281e+000	9.269696e-001
1.000018606023608e-005	6.224280e+000	9.303012e-001
1.000018679848900e-005	6.224279e+000	9.339924e-001
1.000018752488877e-005	6.224278e+000	9.376245e-001
1.000018827999122e-005	6.224277e+000	9.413999e-001
1.000018902668509e-005	6.224277e+000	9.451334e-001
1.000018981094038e-005	6.224276e+000	9.490547e-001
1.000019064704040e-005	6.224275e+000	9.532352e-001
1.000019164880768e-005	6.224273e+000	9.582440e-001
1.000019312810777e-005	6.224271e+000	9.656405e-001
1.000019473501496e-005	6.224269e+000	9.736751e-001
1.000019666348478e-005	6.224267e+000	9.833174e-001
1.000019892210011e-005	6.224264e+000	9.946105e-001
1.000100000000000e-005	6.223267e+000	5.000000e+000
1.001929705712098e-005	6.200649e+000	5.000000e+000
1.003759411424197e-005	6.178272e+000	5.000000e+000
1.005589117136295e-005	6.156137e+000	5.000000e+000
1.007418822848394e-005	6.134243e+000	5.000000e+000
1.009248528560492e-005	6.112590e+000	5.000000e+000
1.011078234272590e-005	6.091178e+000	5.000000e+000
1.012907939984689e-005	6.070008e+000	5.000000e+000
1.022673564984689e-005	5.959816e+000	5.000000e+000
1.032439189984688e-005	5.855066e+000	5.000000e+000
1.042204814984688e-005	5.756255e+000	5.000000e+000
1.061736064984688e-005	5.576360e+000	5.000000e+000
1.091032939984688e-005	5.350357e+000	5.000000e+000
1.106378922127545e-005	5.253309e+000	5.000000e+000
1.121724904270402e-005	5.169579e+000	5.000000e+000
1.137070886413259e-005	5.099167e+000	5.000000e+000
1.152416868556116e-005	5.042072e+000	5.000000e+000
1.167762850698973e-005	4.998294e+000	5.000000e+000
1.183108832841830e-005	4.967834e+000	5.000000e+000
1.198454814984687e-005	4.950691e+000	5.000000e+000
1.208220439984687e-005	4.945725e+000	5.000000e+000
1.217986064984687e-005	4.945626e+000	5.000000e+000
1.227751689984687e-005	4.950300e+000	5.000000e+000
1.237517314984687e-005	4.959651e+000	5.000000e+000
1.247282939984687e-005	4.973580e+000	5.000000e+000
1.257048564984687e-005	4.991984e+000	5.000000e+000
1.276579814984687e-005	5.041800e+000	5.000000e+000
1.296111064984687e-005	5.108244e+000	5.000000e+000
1.315642314984687e-005	5.190430e+000	5.000000e+000
1.344939189984687e-005	5.341228e+000	5.000000e+000
1.374236064984686e-005	5.522236e+000	5.000000e+000
1.403532939984686e-005	5.730226e+000	5.000000e+000
1.432829814984686e-005	5.961928e+000	5.000000e+000
1.462126689984686e-005	6.214065e+000	5.000000e+000
1.500100241627096e-005	6.565599e+000	4.987919e+000
1.500177315348629e-005	6.566338e+000	1.134233e+000
1.500178507317174e-005	6.566350e+000	1.074634e+000
1.500180891254264e-005	6.566372e+000	9.554373e-001
1.500185659128444e-005	6.566418e+000	7.170436e-001
1.500190464251641e-005	6.566464e+000	4.767874e-001
1.500200000000000e-005	6.566556e+000	0.000000e+000
1.514987577362502e-005	6.697436e+000	0.000000e+000
1.529775154725004e-005	6.810993e+000	0.000000e+000
1.544562732087506e-005	6.907227e+000	0.000000e+000
1.559350309450008e-005	6.986138e+000	0.000000e+000
1.574137886812510e-005	7.047726e+000	0.000000e+000
1.588925464175012e-005	7.091991e+000	0.000000e+000
1.603713041537514e-005	7.118933e+000	0.000000e+000
1.613478666537514e-005	7.128244e+000	0.000000e+000
1.623244291537514e-005	7.130633e+000	0.000000e+000
1.633009916537514e-005	7.126230e+000	0.000000e+000
1.642775541537513e-005	7.115171e+000	0.000000e+000
1.652541166537513e-005	7.097597e+000	0.000000e+000
1.662306791537513e-005	7.073648e+000	0.000000e+000
1.681838041537513e-005	7.007217e+000	0.000000e+000
1.701369291537513e-005	6.917083e+000	0.000000e+000
1.720900541537513e-005	6.804490e+000	0.000000e+000
1.750197416537513e-005	6.596305e+000	0.000000e+000
1.779494291537513e-005	6.344931e+000	0.000000e+000
1.799025541537513e-005	6.155599e+000	0.000000e+000
1.808791166537512e-005	6.054919e+000	0.000000e+000
1.818556791537512e-005	5.950460e+000	0.000000e+000
1.828322416537512e-005	5.842826e+000	0.000000e+000
1.833104098948387e-005	5.788992e+000	0.000000e+000
1.833492064209329e-005	5.784575e+000	0.000000e+000
1.833880029470271e-005	5.780150e+000	0.000000e+000
1.834267994731212e-005	5.775717e+000	0.000000e+000
1.834655959992154e-005	5.771275e+000	0.000000e+000
1.835043925253096e-005	5.766826e+000	0.000000e+000
1.835431890514038e-005	5.762368e+000	0.000000e+000
1.835819855774979e-005	5.757902e+000	0.000000e+000
1.835819978238030e-005	5.757900e+000	0.000000e+000
1.835820036704300e-005	5.757900e+000	0.000000e+000
1.835820075335320e-005	5.757899e+000	0.000000e+000
1.835820118352955e-005	5.757899e+000	0.000000e+000
1.835820155219396e-005	5.757898e+000	0.000000e+000
1.835820195569247e-005	5.757898e+000	0.000000e+000
1.835820232950633e-005	5.757897e+000	0.000000e+000
1.835820273122969e-005	5.757897e+000	0.000000e+000
1.835820310911150e-005	5.757896e+000	0.000000e+000
1.835820350430026e-005	5.757896e+000	0.000000e+000
1.835820426901272e-005	5.757895e+000	0.000000e+000
1.835820537418460e-005	5.757894e+000	0.000000e+000
1.835820697405467e-005	5.757892e+000	0.000000e+000
1.835820857392473e-005	5.757890e+000	0.000000e+000
1.835821017379479e-005	5.757888e+000	0.000000e+000
1.835821177366486e-005	5.757886e+000	0.000000e+000
1.835821337353492e-005	5.757885e+000	0.000000e+000
1.835821497340499e-005	5.757883e+000	0.000000e+000
1.835821657327505e-005	5.757881e+000	0.000000e+000
1.859275706280719e-005	5.495598e+000	0.000000e+000
1.882729755233932e-005	5.243999e+000	0.000000e+000
1.906183804187146e-005	5.003082e+000	0.000000e+000
1.929637853140360e-005	4.772849e+000	0.000000e+000
1.953091902093573e-005	4.553299e+000	0.000000e+000
1.976545951046787e-005	4.344431e+000	0.000000e+000
2.000000000000000e-005	4.146247e+000	0.000000e+000
2.000002596492469e-005	4.146226e+000	1.298246e-001
2.000005192984938e-005	4.146205e+000	2.596492e-001
2.000007789477407e-005	4.146183e+000	3.894739e-001
2.000010385969876e-005	4.146162e+000	5.192985e-001
2.000012982462345e-005	4.146140e+000	6.491231e-001
2.000015578954814e-005	4.146118e+000	7.789477e-001
2.000018175447283e-005	4.146097e+000	9.087723e-001
2.000018217289241e-005	4.146096e+000	9.108645e-001
2.000018259131199e-005	4.146096e+000	9.129566e-001
2.000018300973156e-005	4.146096e+000	9.150487e-001
2.000018342815114e-005	4.146096e+000	9.171408e-001
2.000018384657072e-005	4.146095e+000	9.192329e-001
2.000018426499029e-005	4.146095e+000	9.213249e-001
2.000018468340987e-005	4.146094e+000	9.234170e-001
2.000018562071201e-005	4.146094e+000	9.281036e-001
2.000018647603362e-005	4.146093e+000	9.323801e-001
2.000018732281148e-005	4.146092e+000	9.366140e-001
2.000018811502152e-005	4.146091e+000	9.405751e-001
2.000018890667092e-005	4.146091e+000	9.445333e-001
2.000018969151869e-005	4.146091e+000	9.484576e-001
2.000019053368410e-005	4.146090e+000	9.526684e-001
2.000019149983654e-005	4.146089e+000	9.574992e-001
2.000019287747234e-005	4.146088e+000	9.643874e-001
2.000019443958817e-005	4.146086e+000	9.721979e-001
2.000019635084752e-005	4.146085e+000	9.817542e-001
2.000019848556034e-005	4.146083e+000	9.924278e-001
2.000100000000000e-005	4.145419e+000	5.000000e+000
2.005096735764169e-005	4.105453e+000	5.000000e+000
2.010093471528338e-005	4.067253e+000	5.000000e+000
2.015090207292506e-005	4.030818e+000	5.000000e+000
2.020086943056675e-005	3.996149e+000	5.000000e+000
2.025083678820844e-005	3.963245e+000	5.000000e+000
2.030080414585012e-005	3.932107e+000	5.000000e+000
2.035077150349181e-005	3.902734e+000	5.000000e+000
2.064374025349181e-005	3.766209e+000	5.000000e+000
2.083905275349181e-005	3.708516e+000	5.000000e+000
2.093670900349181e-005	3.689373e+000	5.000000e+000
2.103436525349181e-005	3.676558e+000	5.000000e+000
2.113202150349181e-005	3.669961e+000	5.000000e+000
2.122967775349181e-005	3.669468e+000	5.000000e+000
2.132733400349181e-005	3.674961e+000	5.000000e+000
2.142499025349181e-005	3.686319e+000	5.000000e+000
2.152264650349181e-005	3.703418e+000	5.000000e+000
2.162030275349181e-005	3.726131e+000	5.000000e+000
2.181561525349180e-005	3.787876e+000	5.000000e+000
2.201092775349180e-005	3.870481e+000	5.000000e+000
2.220624025349180e-005	3.972838e+000	5.000000e+000
2.249920900349180e-005	4.160909e+000	5.000000e+000
2.279217775349180e-005	4.386901e+000	5.000000e+000
2.308514650349180e-005	4.646774e+000	5.000000e+000
2.337811525349179e-005	4.936432e+000	5.000000e+000
2.367108400349179e-005	5.251768e+000	5.000000e+000
2.396405275349179e-005	5.588692e+000	5.000000e+000
2.411218807442153e-005	5.767363e+000	5.000000e+000
2.426032339535128e-005	5.948708e+000	5.000000e+000
2.440845871628102e-005	6.132728e+000	5.000000e+000
2.455659403721077e-005	6.319421e+000	5.000000e+000
2.470472935814051e-005	6.508788e+000	5.000000e+000
2.485286467907026e-005	6.700830e+000	5.000000e+000
2.500100000000000e-005	6.895545e+000	5.000000e+000
2.500175000000279e-005	6.896530e+000	1.250000e+000
2.500177500000251e-005	6.896563e+000	1.125000e+000
2.500182500000195e-005	6.896628e+000	8.750000e-001
2.500182656250193e-005	6.896630e+000	8.671875e-001
2.500200000000000e-005	6.896858e+000	0.000000e+000
2.517273876654912e-005	7.104793e+000	0.000000e+000
2.534347753309824e-005	7.286674e+000	0.000000e+000
2.551421629964736e-005	7.442501e+000	0.000000e+000
2.568495506619647e-005	7.572274e+000	0.000000e+000
2.585569383274559e-005	7.675992e+000	0.000000e+000
2.602643259929471e-005	7.753657e+000	0.000000e+000
2.619717136584382e-005	7.805267e+000	0.000000e+000
2.629482761584382e-005	7.824471e+000	0.000000e+000
2.639248386584382e-005	7.835903e+000	0.000000e+000
2.649014011584382e-005	7.839702e+000	0.000000e+000
2.658779636584382e-005	7.836013e+000	0.000000e+000
2.668545261584382e-005	7.824984e+000	0.000000e+000
2.678310886584382e-005	7.806768e+000	0.000000e+000
2.688076511584382e-005	7.781521e+000	0.000000e+000
2.707607761584382e-005	7.710576e+000	0.000000e+000
2.727139011584382e-005	7.613469e+000	0.000000e+000
2.746670261584382e-005	7.491567e+000	0.000000e+000
2.775967136584382e-005	7.265306e+000	0.000000e+000
2.805264011584381e-005	6.991312e+000	0.000000e+000
2.824795261584381e-005	6.784595e+000	0.000000e+000
2.834560886584381e-005	6.674582e+000	0.000000e+000
2.844326511584381e-005	6.560385e+000	0.000000e+000
2.854092136584381e-005	6.442247e+000	0.000000e+000
2.863857761584381e-005	6.321316e+000	0.000000e+000
2.863866321142870e-005	6.321209e+000	0.000000e+000
2.863883440259849e-005	6.320992e+000	0.000000e+000
2.863884583967694e-005	6.320978e+000	0.000000e+000
2.863884922302637e-005	6.320974e+000	0.000000e+000
2.863884958994148e-005	6.320973e+000	0.000000e+000
2.863884982045551e-005	6.320973e+000	0.000000e+000
2.863885019467778e-005	6.320972e+000	0.000000e+000
2.863885057595840e-005	6.320972e+000	0.000000e+000
2.863885132165714e-005	6.320971e+000	0.000000e+000
2.863885204992838e-005	6.320970e+000	0.000000e+000
2.863885277819963e-005	6.320969e+000	0.000000e+000
2.863885350647088e-005	6.320968e+000	0.000000e+000
2.863885423474213e-005	6.320967e+000	0.000000e+000
2.863885496301337e-005	6.320966e+000	0.000000e+000
2.863885569128462e-005	6.320966e+000	0.000000e+000
2.863885641955587e-005	6.320965e+000	0.000000e+000
2.883330550247646e-005	6.081000e+000	0.000000e+000
2.902775458539705e-005	5.849289e+000	0.000000e+000
2.922220366831764e-005	5.625829e+000	0.000000e+000
2.941665275123823e-005	5.410622e+000	0.000000e+000
2.961110183415882e-005	5.203668e+000	0.000000e+000
2.980555091707941e-005	5.004967e+000	0.000000e+000
3.000000000000000e-005	4.814517e+000	0.000000e+000
3.000018138413901e-005	4.814343e+000	9.069207e-001
3.000018346000892e-005	4.814341e+000	9.173000e-001
3.000018427356067e-005	4.814340e+000	9.213678e-001
3.000018513051250e-005	4.814339e+000	9.256526e-001
3.000018596366304e-005	4.814338e+000	9.298183e-001
3.000018679168499e-005	4.814338e+000	9.339584e-001
3.000018758730898e-005	4.814337e+000	9.379365e-001
3.000018837223464e-005	4.814336e+000	9.418612e-001
3.000018914612820e-005	4.814335e+000	9.457306e-001
3.000018994383348e-005	4.814334e+000	9.497192e-001
3.000019080592692e-005	4.814334e+000	9.540296e-001
3.000019185276115e-005	4.814333e+000	9.592638e-001
3.000019353862243e-005	4.814331e+000	9.676931e-001
3.000019539867002e-005	4.814329e+000	9.769933e-001
3.000019734340875e-005	4.814327e+000	9.867170e-001
3.000020452100665e-005	4.814321e+000	1.022605e+000
3.000100000000000e-005	4.813555e+000	5.000000e+000
3.003202077991134e-005	4.784259e+000	5.000000e+000
3.006304155982267e-005	4.755651e+000	5.000000e+000
3.009406233973401e-005	4.727732e+000	5.000000e+000
3.012508311964535e-005	4.700502e+000	5.000000e+000
3.015610389955669e-005	4.673959e+000	5.000000e+000
3.018712467946802e-005	4.648106e+000	5.000000e+000
3.021814545937936e-005	4.622941e+000	5.000000e+000
3.041345795937936e-005	4.478146e+000	5.000000e+000
3.070642670937936e-005	4.309895e+000	5.000000e+000
3.090173920937936e-005	4.229511e+000	5.000000e+000
3.109705170937937e-005	4.173783e+000	5.000000e+000
3.119470795937937e-005	4.154937e+000	5.000000e+000
3.129236420937938e-005	4.141974e+000	5.000000e+000
3.139002045937938e-005	4.134792e+000	5.000000e+000
3.148767670937938e-005	4.133286e+000	5.000000e+000
3.158533295937938e-005	4.137349e+000	5.000000e+000
3.168298920937939e-005	4.146867e+000	5.000000e+000
